Time [s],Channel 0,Channel 1
0.000000000,1,0
0.002446310,1,1
0.004231780,0,1
0.006520420,0,0
0.008448390,1,0
0.012377890,1,1
0.013533030,0,1
0.016772580,0,0
0.018853320,1,0
0.022299960,1,1
0.024330680,0,1
0.026375250,0,0
0.029535830,1,0
0.031867270,1,1
0.033449000,0,1
0.037615680,0,0
0.038768100,1,0
0.042020770,1,1
0.044296810,0,1
0.047488470,0,0
0.049613100,1,0
0.051824100,1,1
0.053523340,0,1
0.057219790,0,0
0.058851650,1,0
0.062744320,1,1
0.064248780,0,1
0.067261100,0,0
0.069492450,1,0
0.071690000,1,1
0.073407940,0,1
0.077111990,0,0
0.078867990,1,0
0.082577670,1,1
0.084157770,0,1
0.086637810,0,0
0.089487630,1,0
0.092500500,1,1
0.093583320,0,1
0.096817900,0,0
0.099118270,1,0
0.102293350,1,1
0.104195700,0,1
0.106365770,0,0
0.109584390,1,0
0.111871250,1,1
0.113663300,0,1
0.117356120,0,0
0.118933960,1,0
0.121995760,1,1
0.124317930,0,1
0.127528050,0,0
0.129710090,1,0
0.131709060,1,1
0.133628150,0,1
0.137125300,0,0
0.139930080,1,0
0.141509170,1,1
0.145036030,0,1
0.146970200,0,0
0.149050000,1,0
0.151529380,1,1
0.154306450,0,1
0.156976250,0,0
0.158652650,1,0
0.162502770,1,1
0.163742590,0,1
0.166768640,0,0
0.168914050,1,0
0.172800330,1,1
0.174120500,0,1
0.176890280,0,0
0.179493520,1,0
0.182637260,1,1
0.183428790,0,1
0.187251600,0,0
0.188828330,1,0
0.191676980,1,1
0.194021380,0,1
0.197056730,0,0
0.199187350,1,0
0.202553100,1,1
0.204283100,0,1
0.206803280,0,0
0.209493460,1,0
0.213535650,0,0
0.217949820,0,1
0.219074250,1,1
0.222272880,1,0
0.224358560,0,0
0.227793910,0,1
0.229529000,1,1
0.232105520,1,0
0.233646230,0,0
0.237588760,0,1
0.239026890,1,1
0.241916040,1,0
0.244161520,0,0
0.247518780,0,1
0.249675170,1,1
0.252957020,1,0
0.253622120,0,0
0.257375640,0,1
0.258941450,1,1
0.262785320,1,0
0.264287260,0,0
0.267409230,0,1
0.269465580,1,1
0.273063550,1,0
0.273395210,0,0
0.277361270,0,1
0.278845950,1,1
0.282831830,1,0
0.284157580,0,0
0.287396620,0,1
0.289450190,1,1
0.292835190,1,0
0.294739880,0,0
0.297118950,0,1
0.299202630,1,1
0.302496570,1,0
0.304312320,0,0
0.308008010,0,1
0.308517640,1,1
0.312308150,1,0
0.313742370,0,0
0.317839900,0,1
0.318998100,1,1
0.321885560,1,0
0.327709280,1,1
0.328159230,0,1
0.329861140,1,1
0.331761660,1,0
0.333782760,0,0
0.337257720,0,1
0.339072290,1,1
0.342687090,1,0
0.344300690,0,0
0.347507450,0,1
0.349636330,1,1
0.352913780,1,0
0.353344410,0,0
0.357064670,0,1
0.358786070,1,1
0.362480490,1,0
0.364084690,0,0
0.366825670,0,1
0.369338730,1,1
0.372427890,1,0
0.373390690,0,0
0.377950490,0,1
0.378894870,1,1
0.382300150,1,0
0.384140850,0,0
0.387832080,0,1
0.389422290,1,1
0.392137040,1,0
0.394813100,0,0
0.398076530,0,1
0.399174480,1,1
0.402146200,1,0
0.404271460,0,0
0.407647320,0,1
0.408481730,1,1
0.411928120,1,0
0.413561590,0,0
0.417418770,0,1
0.418915640,1,1
0.421822050,1,0
0.424086590,0,0
0.427470580,0,1
0.429497000,1,1
0.432899730,1,0
0.433518630,0,0
0.437258420,0,1
0.438939210,1,1
0.442741040,1,0
0.444093050,0,0
0.447560090,0,1
0.449308350,1,1
0.452985370,1,0
0.454602190,0,0
0.457160030,0,1
0.458763150,1,1
0.462612180,1,0
0.463869760,0,0
0.467451110,0,1
0.469369700,1,1
0.472899710,1,0
0.473540190,0,0
0.477281810,0,1
0.478977730,1,1
0.482496950,1,0
0.484211590,0,0
0.486825510,0,1
0.489529920,1,1
0.492361510,1,0
0.493446090,0,0
0.497880500,0,1
0.498958810,1,1
0.502163950,1,0
0.504097300,0,0
0.507677830,0,1
0.511952310,0,0
0.512129130,1,0
0.515027140,0,0
0.517451210,0,1
0.519216320,1,1
0.521846790,1,0
0.524480070,0,0
0.527494010,0,1
0.528492830,1,1
0.531833940,1,0
0.533595450,0,0
0.537360120,0,1
0.539190240,1,1
0.542020790,1,0
0.544659180,0,0
0.547655080,0,1
0.548836710,1,1
0.553079430,1,0
0.554111430,0,0
0.557421990,0,1
0.559299880,1,1
0.562841590,1,0
0.563441090,0,0
0.567487360,0,1
0.568727420,1,1
0.572884050,1,0
0.573816360,0,0
0.577225360,0,1
0.579075310,1,1
0.582617270,1,0
0.584439180,0,0
0.588144210,0,1
0.588655740,1,1
0.592207660,1,0
0.595140170,0,0
0.598064210,0,1
0.599342350,1,1
0.602131170,1,0
0.604643070,0,0
0.607554920,0,1
0.608667300,1,1
0.611881950,1,0
0.613774370,0,0
0.617429800,0,1
0.618992290,1,1
0.621802410,1,0
0.627651000,1,1
0.628099220,0,1
0.629779690,1,1
0.632886850,1,0
0.633695510,0,0
0.637233510,0,1
0.638963140,1,1
0.642699210,1,0
0.644282930,0,0
0.647524420,0,1
0.649631120,1,1
0.652918110,1,0
0.653563960,0,0
0.657271020,0,1
0.658968060,1,1
0.662477740,1,0
0.664102530,0,0
0.667349000,0,1
0.669293800,1,1
0.672791720,1,0
0.674595140,0,0
0.677125220,0,1
0.679088840,1,1
0.682529920,1,0
0.684327540,0,0
0.688059530,0,1
0.689488230,1,1
0.692114070,1,0
0.694850920,0,0
0.697600910,0,1
0.699031890,1,1
0.701891140,1,0
0.704220460,0,0
0.707518030,0,1
0.708469730,1,1
0.711779750,1,0
0.713709860,0,0
0.717287100,0,1
0.719207910,1,1
0.722717100,1,0
0.724473410,0,0
0.727669170,0,1
0.728685900,1,1
0.733100530,1,0
0.733781460,0,0
0.737274210,0,1
0.739172840,1,1
0.742870050,1,0
0.745547730,0,0
0.747490780,0,1
0.749695090,1,1
0.752921420,1,0
0.755034980,0,0
0.757301080,0,1
0.760217950,1,1
0.762512950,1,0
0.764392830,0,0
0.767361930,0,1
0.769719680,1,1
0.772853770,1,0
0.774863190,0,0
0.777167100,0,1
0.778949540,1,1
0.782586450,1,0
0.784198380,0,0
0.788100990,0,1
0.789630220,1,1
0.792378870,1,0
0.794998120,0,0
0.797993100,0,1
0.799293460,1,1
0.802270700,1,0
0.804504330,0,0
0.807765590,0,1
0.808517540,1,1
0.811850410,1,0
0.813622930,0,0
0.817355080,0,1
0.819184600,1,1
0.823275180,1,0
0.824288460,0,0
0.827718700,0,1
0.829460520,1,1
0.831977660,1,0
0.833441530,0,0
0.837453300,0,1
0.838786960,1,1
0.842880660,1,0
0.844043960,0,0
0.848728920,0,1
0.849490770,1,1
0.852997180,1,0
0.853424040,0,0
0.857323110,0,1
0.858912140,1,1
0.862708590,1,0
0.864137220,0,0
0.867336110,0,1
0.869432420,1,1
0.872826890,1,0
0.874932330,0,0
0.877154060,0,1
0.879208280,1,1
0.882542430,1,0
0.884304690,0,0
0.888063150,0,1
0.888546930,1,1
0.892144540,1,0
0.895022360,0,0
0.897656190,0,1
0.900373070,1,1
0.901923840,1,0
0.904486450,0,0
0.907880000,0,1
0.908504070,1,1
0.912187080,1,0
0.913733900,0,0
0.918464230,0,1
0.919187280,1,1
0.922126090,1,0
0.924532870,0,0
0.927713070,0,1
0.928735050,1,1
0.931969410,1,0
0.933810570,0,0
0.937280220,0,1
0.939172180,1,1
0.942904890,1,0
0.945547170,0,0
0.947507410,0,1
0.949554700,1,1
0.952910420,1,0
0.954800200,0,0
0.957298280,0,1
0.960179800,1,1
0.962502450,1,0
0.964358520,0,0
0.966839950,0,1
0.969532340,1,1
0.972364440,1,0
0.973460720,0,0
0.977866570,0,1
0.979111060,1,1
0.982148420,1,0
0.984388880,0,0
0.987649590,0,1
0.988542410,1,1
0.992995940,1,0
0.993600180,0,0
0.997146620,0,1
0.999031840,1,1
1.002540300,1,0
1.004309370,0,0
1.007396910,0,1
1.009666180,1,1
1.012891500,1,0
1.013635480,0,0
1.017286540,0,1
1.018967650,1,1
1.022525720,1,0
1.024111900,0,0
1.027316750,0,1
1.029787550,1,1
1.033932360,1,0
1.036162640,0,0
1.038266170,0,1
1.039146770,1,1
1.042667990,1,0
1.044378460,0,0
1.047028470,0,1
1.049581010,1,1
1.052550200,1,0
1.053502080,0,0
1.058265820,0,1
1.058790140,1,1
1.062458990,1,0
1.064149220,0,0
1.067942670,0,1
1.068477350,1,1
1.072243750,1,0
1.073728080,0,0
1.077774120,0,1
1.079006860,1,1
1.082036200,1,0
1.084311960,0,0
1.087659270,0,1
1.089496120,1,1
1.092909480,1,0
1.093620550,0,0
1.097265350,0,1
1.099062870,1,1
1.102702330,1,0
1.104298160,0,0
1.107523740,0,1
1.109815010,1,1
1.112960260,1,0
1.113746860,0,0
1.117325350,0,1
1.119052520,1,1
1.122755070,1,0
1.124360930,0,0
1.127339180,0,1
1.130890150,1,1
1.132868640,1,0
1.135017010,0,0
1.137208920,0,1
1.139302310,1,1
1.142624030,1,0
1.144396970,0,0
1.147331120,0,1
1.148646930,1,1
1.152796960,1,0
1.154942810,0,0
1.157113760,0,1
1.160307110,1,1
1.162514460,1,0
1.164250930,0,0
1.167997780,0,1
1.168419910,1,1
1.172267800,1,0
1.173689770,0,0
1.177796430,0,1
1.179189100,1,1
1.181883620,1,0
1.184475020,0,0
1.187796530,0,1
1.188497420,1,1
1.191867160,1,0
1.193797900,0,0
1.197375040,0,1
1.200073030,1,1
1.201980290,1,0
1.205464550,0,0
1.207551370,0,1
1.209478930,1,1
1.213529230,0,1
1.217937900,0,0
1.220115080,1,0
1.222382420,1,1
1.224246690,0,1
1.227876880,0,0
1.229579400,1,0
1.232237700,1,1
1.233505980,0,1
1.237828790,0,0
1.238884100,1,0
1.242164130,1,1
1.244069840,0,1
1.247517000,0,0
1.249496820,1,0
1.252857370,1,1
1.253617580,0,1
1.257075040,0,0
1.259159090,1,0
1.262561620,1,1
1.264276700,0,1
1.267783830,0,0
1.268553440,1,0
1.272412140,1,1
1.273762820,0,1
1.277995190,0,0
1.279325020,1,0
1.282313940,1,1
1.284425840,0,1
1.287520650,0,0
1.289596040,1,0
1.293262240,1,1
1.293523550,0,1
1.297502790,0,0
1.298872970,1,0
1.303007380,1,1
1.304227500,0,1
1.307516410,0,0
1.309583610,1,0
1.312998630,1,1
1.313515570,0,1
1.317275820,0,0
1.318822350,1,0
1.322742800,1,1
1.324304940,0,1
1.328280620,0,0
1.329783050,1,0
1.332643630,1,1
1.333858270,0,1
1.338032800,0,0
1.339253020,1,0
1.342181200,1,1
1.344355220,0,1
1.347612440,0,0
1.348564110,1,0
1.353134820,1,1
1.354935990,0,1
1.357409400,0,0
1.360298140,1,0
1.363014720,1,1
1.364223980,0,1
1.367508080,0,0
1.368375290,1,0
1.373033280,1,1
1.373493800,0,1
1.377288970,0,0
1.378976460,1,0
1.382802870,1,1
1.384093390,0,1
1.387616580,0,0
1.389379010,1,0
1.393147660,1,1
1.393450990,0,1
1.397226810,0,0
1.398861080,1,0
1.402769410,1,1
1.404246460,0,1
1.407631910,0,0
1.409967390,1,0
1.413134660,1,1
1.415257720,0,1
1.417375690,0,0
1.419271510,1,0
1.422861390,1,1
1.424498840,0,1
1.427410250,0,0
1.429728190,1,0
1.432877440,1,1
1.434841650,0,1
1.438269640,0,0
1.438963400,1,0
1.442606390,1,1
1.444256110,0,1
1.448043740,0,0
1.449546980,1,0
1.452203480,1,1
1.453615000,0,1
1.457619270,0,0
1.459130840,1,0
1.463492980,1,1
1.464204150,0,1
1.467559730,0,0
1.469580500,1,0
1.473063220,1,1
1.474865750,0,1
1.477317930,0,0
1.480127880,1,0
1.482904840,1,1
1.484273300,0,1
1.487400750,0,0
1.488272260,1,0
1.492916900,1,1
1.493416310,0,1
1.497158390,0,0
1.499008020,1,0
1.502613110,1,1
1.504267490,0,1
1.507847630,0,0
1.509556330,1,0
1.512185740,1,1
1.513645260,0,1
1.517627160,0,0
1.519205200,1,0
1.522528700,1,1
1.524300740,0,1
1.527986510,0,0
1.528532430,1,0
1.532163670,1,1
1.534866580,0,1
1.537602490,0,0
1.540149130,1,0
1.543408280,1,1
1.544141370,0,1
1.547756730,0,0
1.549218420,1,0
1.553273400,1,1
1.553415130,0,1
1.557331030,0,0
1.558865330,1,0
1.563279220,1,1
1.564085690,0,1
1.567661760,0,0
1.569343570,1,0
1.573154450,1,1
1.575557590,0,1
1.577227190,0,0
1.579581270,1,0
1.582942540,1,1
1.584687490,0,1
1.587488370,0,0
1.589972530,1,0
1.593001600,1,1
1.595061090,0,1
1.597265730,0,0
1.600262650,1,0
1.602758720,1,1
1.604243390,0,1
1.608309160,0,0
1.609551960,1,0
1.612661310,1,1
1.613461730,0,1
1.617888400,0,0
1.618906280,1,0
1.622218460,1,1
1.624200380,0,1
1.627628860,0,0
1.629372440,1,0
1.633144680,1,1
1.634640370,0,1
1.637409560,0,0
1.638798030,1,0
1.642947200,1,1
1.644076670,0,1
1.647464360,0,0
1.649324640,1,0
1.652974930,1,1
1.653764020,0,1
1.657223200,0,0
1.659192950,1,0
1.662760100,1,1
1.664273090,0,1
1.667299090,0,0
1.669466630,1,0
1.672786540,1,1
1.674866620,0,1
1.677057550,0,0
1.678984610,1,0
1.682550080,1,1
1.684276030,0,1
1.687969760,0,0
1.689465070,1,0
1.692331270,1,1
1.693545800,0,1
1.697690400,0,0
1.698966870,1,0
1.703172190,1,1
1.704349690,0,1
1.707560780,0,0
1.709667720,1,0
1.713046790,1,1
1.713593030,0,1
1.717276040,0,0
1.718959350,1,0
1.722851700,1,1
1.724222650,0,1
1.727376130,0,0
1.729540660,1,0
1.732894540,1,1
1.733641090,0,1
1.738264150,0,0
1.739175190,1,0
1.742569320,1,1
1.744267200,0,1
1.748009430,0,0
1.748483480,1,0
1.752377170,1,1
1.753747850,0,1
1.757607940,0,0
1.759164510,1,0
1.763469820,1,1
1.764456150,0,1
1.767771480,0,0
1.768470210,1,0
1.773325300,1,1
1.773687660,0,1
1.777624230,0,0
1.778988280,1,0
1.783392820,1,1
1.787703220,1,0
1.788085240,0,0
1.789919050,1,0
1.793114840,1,1
1.793850220,0,1
1.797378770,0,0
1.799009320,1,0
1.802856410,1,1
1.804266300,0,1
1.807338310,0,0
1.809512570,1,0
1.813022890,1,1
1.813451970,0,1
1.817238330,0,0
1.818951640,1,0
1.822726220,1,1
1.824302650,0,1
1.828129620,0,0
1.829657120,1,0
1.832487600,1,1
1.833571590,0,1
1.837982430,0,0
1.838923520,1,0
1.842124200,1,1
1.844161430,0,1
1.847784240,0,0
1.849391020,1,0
1.853308450,1,1
1.854638890,0,1
1.857382590,0,0
1.859028030,1,0
1.863036870,1,1
1.864171060,0,1
1.869035910,0,0
1.869499600,1,0
1.873408150,1,1
1.873435130,0,1
1.877654660,0,0
1.878743610,1,0
1.883362380,1,1
1.884109620,0,1
1.887645430,0,0
1.889370330,1,0
1.893147850,1,1
1.893495060,0,1
1.897405180,0,0
1.898793670,1,0
1.902916050,1,1
1.904081110,0,1
1.907789110,0,0
1.909329590,1,0
1.912258420,1,1
1.914851890,0,1
1.917851480,0,0
1.918953590,1,0
1.922703510,1,1
1.924138030,0,1
1.928166520,0,0
1.929483510,1,0
1.932530340,1,1
1.933411410,0,1
1.937996360,0,0
1.938730260,1,0
1.942352920,1,1
1.944817730,0,1
1.947796290,0,0
1.950172020,1,0
1.953273690,1,1
1.954075090,0,1
1.957342070,0,0
1.958817040,1,0
1.963323250,1,1
1.964258150,0,1
1.967640870,0,0
1.969451120,1,0
1.973151680,1,1
1.973593920,0,1
1.977420290,0,0
1.978985040,1,0
1.982929090,1,1
1.984321740,0,1
1.987447750,0,0
1.989553930,1,0
1.992919200,1,1
1.993736890,0,1
1.997150940,0,0
1.998957580,1,0
2.002589520,1,1
2.004135510,0,1
2.007991160,0,0
2.009343510,1,0
2.012341590,1,1
2.014632220,0,1
2.017694260,0,0
2.019004610,1,0
2.023452120,1,1
2.024216470,0,1
2.027724450,0,0
2.029675560,1,0
2.032137050,1,1
2.033819320,0,1
2.037554550,0,0
2.039328290,1,0
2.043214560,1,1
2.044617330,0,1
2.048179820,0,0
2.048655030,1,0
2.052743650,1,1
2.053914840,0,1
2.057033060,0,0
2.059100870,1,0
2.062537040,1,1
2.064558390,0,1
2.067968520,0,0
2.068719860,1,0
2.072412930,1,1
2.073808220,0,1
2.077902000,0,0
2.078974690,1,0
2.082237420,1,1
2.084409480,0,1
2.087643270,0,0
2.089371090,1,0
2.093400920,1,1
2.094833530,0,1
2.097663530,0,0
2.099022220,1,0
2.103365920,1,1
2.104119650,0,1
2.107671100,0,0
2.110021640,1,0
2.113141610,1,1
2.115244290,0,1
2.117486860,0,0
2.119444550,1,0
2.123386090,0,0
2.123982130,0,1
2.128223560,0,0
2.128719920,1,0
2.132522600,1,1
2.133815520,0,1
2.137986430,0,0
2.140184010,1,0
2.143522440,1,1
2.144353440,0,1
2.148379490,1,1
2.148919250,1,0
2.153609120,0,0
2.154367490,0,1
2.158680770,0,0
2.158926060,1,0
2.162998900,1,1
2.165092990,0,1
2.167519950,0,0
2.169518590,1,0
2.173060760,1,1
2.173740330,0,1
2.177307740,0,0
2.179102770,1,0
2.183035990,1,1
2.184245670,0,1
2.187694730,0,0
2.189436090,1,0
2.193159320,1,1
2.194670710,0,1
2.197405670,0,0
2.198995240,1,0
2.202940010,1,1
2.204226900,0,1
2.207429570,0,0
2.209540860,1,0
2.212891280,1,1
2.213455720,0,1
2.219097610,1,1
2.221470900,1,0
2.223687270,1,1
2.224186920,0,1
2.227944580,0,0
2.229396420,1,0
2.232302180,1,1
2.234842140,0,1
2.237693440,0,0
2.238992860,1,0
2.243394130,1,1
2.244153630,0,1
2.247692110,0,0
2.249348040,1,0
2.253186170,1,1
2.254904690,0,1
2.257386440,0,0
2.259052860,1,0
2.263860610,1,1
2.264307110,0,1
2.268128320,0,0
2.269582550,1,0
2.273575110,1,1
2.273664850,0,1
2.277989200,0,0
2.279003590,1,0
2.282270200,1,1
2.284234050,0,1
2.288773040,0,0
2.289631470,1,0
2.293556730,0,0
2.294116350,0,1
2.298359100,0,0
2.298956810,1,0
2.302624370,1,1
2.304314510,0,1
2.307972380,0,0
2.308512190,1,0
2.312299360,1,1
2.313566050,0,1
2.317695700,0,0
2.319146430,1,0
2.323341710,1,1
2.324252980,0,1
2.327635010,0,0
2.329443170,1,0
2.333101590,1,1
2.334699500,0,1
2.337315110,0,0
2.338973020,1,0
2.342889090,1,1
2.344309970,0,1
2.347400150,0,0
2.349561960,1,0
2.352908060,1,1
2.353474630,0,1
2.357182090,0,0
2.358824780,1,0
2.362752620,1,1
2.364075920,0,1
2.367289740,0,0
2.369399390,1,0
2.372992280,1,1
2.373453610,0,1
2.377259210,0,0
2.378833100,1,0
2.382804530,1,1
2.384111800,0,1
2.387321050,0,0
2.389297760,1,0
2.392831480,1,1
2.394864090,0,1
2.398246660,0,0
2.398933190,1,0
2.402550070,1,1
2.404162030,0,1
2.407765670,0,0
2.409472660,1,0
2.412150870,1,1
2.414731470,0,1
2.417592290,0,0
2.419091970,1,0
2.423524850,1,1
2.424166220,0,1
2.427805460,0,0
2.429591330,1,0
2.433323880,1,1
2.433626560,0,1
2.437391140,0,0
2.438885320,1,0
2.443335820,1,1
2.444291030,0,1
2.447682740,0,0
2.449500580,1,0
2.453156820,1,1
2.453610430,0,1
2.457402040,0,0
2.458975010,1,0
2.462938300,1,1
2.464243940,0,1
2.467449470,0,0
2.469548280,1,0
2.472878130,1,1
2.473462860,0,1
2.478294910,0,0
2.478751750,1,0
2.482643940,1,1
2.483995470,0,1
2.487875540,0,0
2.489291450,1,0
2.492229050,1,1
2.494877440,0,1
2.497763210,0,0
2.499236540,1,0
2.502088890,1,1
2.504588740,0,1
2.507543740,0,0
2.508615020,1,0
2.513254070,1,1
2.513700500,0,1
2.517331840,0,0
2.518961370,1,0
2.523415770,1,1
2.527757860,1,0
2.528074240,0,0
2.529944220,1,0
2.533260500,1,1
2.533859730,0,1
2.537537940,0,0
2.539183890,1,0
2.543475610,1,1
2.544413590,0,1
2.547810870,0,0
2.549587790,1,0
2.552097190,1,1
2.553509460,0,1
2.557457620,0,0
2.558928890,1,0
2.564226740,0,0
2.569586050,1,0
2.570074200,1,1
2.573493380,0,1
2.574469640,0,0
2.578991040,1,0
2.579998540,1,1
2.584315840,0,1
2.584737390,0,0
2.588548470,1,0
2.590248630,1,1
2.593647830,0,1
2.594499630,0,0
2.599124980,1,0
2.599796830,1,1
2.604161420,0,1
2.605163350,0,0
2.609350090,1,0
2.609572390,1,1
2.613428430,0,1
2.614787400,0,0
2.618922090,1,0
2.619579290,1,1
2.624942300,1,0
2.625196310,0,0
2.629318470,0,1
2.629509320,1,1
2.633616190,0,1
2.634525950,0,0
2.639171360,1,0
2.639331360,1,1
2.644269890,0,1
2.644807440,0,0
2.648487060,1,0
2.650267540,1,1
2.654544750,1,0
2.654941030,0,0
2.660059370,0,1
2.663022760,1,1
2.664115370,1,0
2.664618770,0,0
2.668629710,1,0
2.669635650,1,1
2.673897540,0,1
2.675405540,0,0
2.679216310,1,0
2.679779550,1,1
2.684309380,0,1
2.685024490,0,0
2.689348360,0,1
2.689479150,1,1
2.693414770,0,1
2.694749730,0,0
2.698769770,1,0
2.699563140,1,1
2.704362180,0,1
2.704788720,0,0
2.709136920,0,1
2.709527010,1,1
2.714659840,1,0
2.714831760,0,0
2.719537830,0,1
2.720731080,1,1
2.723502140,0,1
2.725002340,0,0
2.728810610,1,0
2.729351670,1,1
2.734029290,0,1
2.734786350,0,0
2.739189340,1,0
2.739402230,1,1
2.744278450,0,1
2.744856110,0,0
2.749456670,1,0
2.751572380,1,1
2.754789280,0,1
2.756958500,0,0
2.758951040,1,0
2.760152650,1,1
2.764115440,0,1
2.764437660,0,0
2.769510850,1,0
2.770034920,1,1
2.773424810,0,1
2.774085540,0,0
2.778776650,1,0
2.779629220,1,1
2.784125630,0,1
2.785089790,0,0
2.789433160,1,0
2.789682260,1,1
2.794706660,0,1
2.795294520,0,0
2.799721190,0,1
2.799836460,1,1
2.804947290,0,1
2.805120990,0,0
2.809463950,0,1
2.810117680,1,1
2.814208470,0,1
2.814870760,0,0
2.819380300,1,0
2.819461930,1,1
2.824483540,0,1
2.824855210,0,0
2.829803740,1,0
2.830331190,1,1
2.834395080,1,0
2.835028930,0,0
2.839062770,1,0
2.839879000,1,1
2.844173580,0,1
2.844187730,0,0
2.849614650,1,0
2.850019140,1,1
2.854081300,1,0
2.854826870,0,0
2.858972220,1,0
2.859592500,1,1
2.864126510,0,1
2.865056000,0,0
2.869410230,0,1
2.869544440,1,1
2.873662410,0,1
2.874932300,0,0
2.878982040,1,0
2.879724160,1,1
2.884122530,0,1
2.885158960,0,0
2.889315550,0,1
2.889337180,1,1
2.893511190,0,1
2.895515960,0,0
2.898936940,1,0
2.900962480,1,1
2.904190550,1,0
2.904233950,0,0
2.909563800,1,0
2.910829310,1,1
2.913478830,0,1
2.916324310,0,0
2.918807090,1,0
2.920777920,1,1
2.924200470,0,1
2.924395040,0,0
2.929543460,1,0
2.929997600,1,1
2.933665410,0,1
2.934306970,0,0
2.938965780,1,0
2.940129480,1,1
2.944206830,0,1
2.945133600,0,0
2.949473190,1,0
2.949523240,1,1
2.954843150,0,1
2.955053550,0,0
2.959126820,1,0
2.959584810,1,1
2.964379910,0,1
2.965004890,0,0
2.969339360,0,1
2.969733040,1,1
2.973646540,0,1
2.974765500,0,0
2.979054700,1,0
2.979363000,1,1
2.984142280,0,1
2.984768640,0,0
2.989130130,0,1
2.989329720,1,1
2.993447820,0,1
2.994581580,0,0
2.998834460,1,0
2.999542780,1,1
3.004344660,0,1
3.004972520,0,0
3.009153800,0,1
3.009663900,1,1
3.013757520,0,1
3.014791540,0,0
3.018993870,1,0
3.019382300,1,1
3.024293690,0,1
3.024894390,0,0
3.029616700,1,0
3.030392400,1,1
3.034666380,1,0
3.034850230,0,0
3.039275550,1,0
3.040209360,1,1
3.044281650,1,0
3.044366280,0,0
3.048586320,1,0
3.050056890,1,1
3.053836690,0,1
3.054124320,0,0
3.059187660,1,0
3.059617060,1,1
3.064539860,0,1
3.065058710,0,0
3.068595560,1,0
3.069429220,1,1
3.073833790,0,1
3.075003710,0,0
3.079167690,1,0
3.079749000,1,1
3.084414660,0,1
3.085175320,0,0
3.089332710,0,1
3.089596840,1,1
3.093521080,0,1
3.094766280,0,0
3.099612930,0,1
3.099990230,1,1
3.104037990,0,1
3.105003640,0,0
3.109163310,0,1
3.109393090,1,1
3.114571280,1,0
3.114669580,0,0
3.118983230,1,0
3.119380210,1,1
3.124293820,0,1
3.124881710,0,0
